
T1F44 000:538 SEGGER J-Link V4.24b Log File (0004ms, 0536ms total)
T1F44 000:538 DLL Compiled: Feb 22 2011 20:47:17 (0004ms, 0536ms total)
T1F44 000:538 Logging started @ 2018-08-17 16:17 (0005ms, 0536ms total)
T1F44 000:543 JLINK_SetWarnOutHandler(...) (0000ms, 0541ms total)
T1F44 000:543 JLINK_OpenEx(...)
Firmware: J-Link ARM V8 compiled Jan 31 2011 18:34:52
Hardware: V8.00
S/N: 805306163
Feature(s): RDI,FlashDL,FlashBP,JFlash,GDBFull  returns O.K. (0319ms, 0541ms total)
T1F44 000:862 JLINK_SetErrorOutHandler(...) (0000ms, 0860ms total)
T1F44 000:864 JLINK_ExecCommand("ProjectFile = "E:\Project\COSWork\SLE\160P\SMEC98SP\ÊÂÀý³ÌÐò\SMEC98SPforSTM32\User\JLinkSettings.ini"", ...)  returns 0x00 (0001ms, 0860ms total)
T1F44 000:867 JLINK_ExecCommand("DisableConnectionTimeout", ...)  returns 0x00 (0000ms, 0861ms total)
T1F44 000:869 JLINK_TIF_Select(JLINKARM_TIF_JTAG)  returns 0x00 (0000ms, 0861ms total)
T1F44 000:872 JLINK_SetSpeed(2000) (0002ms, 0861ms total)
T1F44 000:875 JLINK_GetHardwareVersion()  returns 0x13880 (0000ms, 0863ms total)
T1F44 000:875 JLINK_GetDLLVersion()  returns 42402 (0000ms, 0863ms total)
T1F44 000:875 JLINK_GetFirmwareString(...) (0000ms, 0863ms total)
T1F44 000:876 JLINK_GetDLLVersion()  returns 42402 (0000ms, 0863ms total)
T1F44 000:876 JLINK_GetCompileDateTime() (0000ms, 0863ms total)
T1F44 000:877 JLINK_GetFirmwareString(...) (0000ms, 0863ms total)
T1F44 000:877 JLINK_GetHardwareVersion()  returns 0x13880 (0000ms, 0863ms total)
T1F44 000:877 JLINK_GetIdData(...) >0x2F8 JTAG>TotalIRLen = 9, IRPrint = 0x0011 >0x30 JTAG> >0x210 JTAG> >0x80 JTAG> >0x40 JTAG> >0x40 JTAG> >0x50 JTAG> >0x40 JTAG> >0x40 JTAG> >0x40 JTAG> >0x50 JTAG> >0x40 JTAG> >0x40 JTAG> >0x30 JTAG> >0x40 JTAG> >0x50 JTAG> >0x40 JTAG> >0x38 JTAG> >0x80 JTAG> >0x40 JTAG> >0x40 JTAG> >0x50 JTAG> >0x40 JTAG> >0x40 JTAG> >0x40 JTAG> >0x50 JTAG> >0x40 JTAG> >0x40 JTAG> >0x30 JTAG> >0x40 JTAG> >0x40 JTAG> >0x40 JTAG> >0x40 JTAG> >0x40 JTAG> >0x50 JTAG> >0x40 JTAG>
 >0x80 JTAG> >0x40 JTAG> >0x30 JTAG> >0x40 JTAG> >0x40 JTAG> >0x40 JTAG> >0x40 JTAG> >0x40 JTAG> >0x50 JTAG> >0x40 JTAG> >0x80 JTAG> >0x40 JTAG> >0x30 JTAG> >0x40 JTAG> >0x50 JTAG> >0x40 JTAG> >0x40 JTAG> >0x40 JTAG> >0x30 JTAG> >0x40 JTAG> >0x50 JTAG> >0x40 JTAG>Found Cortex-M3 r1p1, Little endian. >0x50 JTAG> >0x50 JTAG> >0x40 JTAG> >0x40 JTAG> >0x30 JTAG> >0x30 JTAG> >0x50 JTAG> >0x40 JTAG> >0x80 JTAG> >0x40 JTAG> >0x30 JTAG> >0x40 JTAG> >0x50 JTAG> >0x40 JTAG> >0x40 JTAG> >0x40 JTAG> >0x30 JTAG>
 >0x40 JTAG> >0x50 JTAG> >0x40 JTAG>TPIU fitted. >0x40 JTAG> >0x40 JTAG> >0x30 JTAG> >0x40 JTAG> >0x50 JTAG> >0x40 JTAG> >0x40 JTAG> >0x40 JTAG> >0x30 JTAG> >0x40 JTAG> >0x50 JTAG> >0x40 JTAG> >0x40 JTAG> >0x40 JTAG> >0x30 JTAG> >0x40 JTAG> >0x50 JTAG> >0x40 JTAG>  FPUnit: 6 code (BP) slots and 2 literal slots >0x40 JTAG> >0x40 JTAG> >0x30 JTAG> >0x40 JTAG> >0x50 JTAG> >0x40 JTAG> ScanLen=9 NumDevices=2 aId[0]=0x3BA00477 aIrRead[0]=0 aScanLen[0]=0 aScanRead[0]=0 (0116ms, 0863ms total)
T1F44 000:993 JLINK_JTAG_GetDeviceID(DeviceIndex = 0)  returns 0x3BA00477 (0000ms, 0979ms total)
T1F44 000:993 JLINK_JTAG_GetDeviceInfo(DeviceIndex = 0)  returns 0x00 (0000ms, 0979ms total)
T1F44 000:993 JLINK_JTAG_GetDeviceID(DeviceIndex = 1)  returns 0x16410041 (0000ms, 0979ms total)
T1F44 000:993 JLINK_JTAG_GetDeviceInfo(DeviceIndex = 1)  returns 0x00 (0000ms, 0979ms total)
T1F44 000:993 JLINK_GetDebugInfo(0x100) -- Value=0xE00FF003  returns 0x00 (0000ms, 0979ms total)
T1F44 000:994 JLINK_ReadMem (0xE00FFFF0, 0x0010 Bytes, ...) -- CPU is running -- CPU_ReadMem(16 bytes @ 0xE00FFFF0) -- Data:  0D 00 00 00 10 00 00 00 05 00 00 00 B1 00 00 00  returns 0x00 (0005ms, 0980ms total)
T1F44 000:999 JLINK_ReadMem (0xE00FFFD0, 0x0020 Bytes, ...) -- CPU is running -- CPU_ReadMem(32 bytes @ 0xE00FFFD0) -- Data:  00 00 00 00 00 00 00 00 00 00 00 00 00 00 00 00 ...  returns 0x00 (0002ms, 0985ms total)
T1F44 001:002 JLINK_ReadMem (0xE00FF000, 0x0018 Bytes, ...) -- CPU is running -- CPU_ReadMem(24 bytes @ 0xE00FF000) -- Data:  03 F0 F0 FF 03 20 F0 FF 03 30 F0 FF 03 10 F0 FF ...  returns 0x00 (0003ms, 0987ms total)
T1F44 001:005 JLINK_ReadMemU32(0xE000ED00, 0x0001 Items, ...) -- CPU is running -- CPU_ReadMem(4 bytes @ 0xE000ED00) -- Data:  31 C2 1F 41  returns 0x01 (0002ms, 0990ms total)
T1F44 001:007 JLINK_SetResetType(JLINKARM_RESET_TYPE_NORMAL)  returns JLINKARM_RESET_TYPE_NORMAL (0000ms, 0992ms total)
T1F44 001:007 JLINK_Reset() >0x308 JTAG>TotalIRLen = 9, IRPrint = 0x0011 >0x30 JTAG> >0x210 JTAG> >0x80 JTAG> >0x40 JTAG> >0x40 JTAG> >0x50 JTAG> >0x40 JTAG> >0x40 JTAG> >0x40 JTAG> >0x50 JTAG> >0x40 JTAG> >0x40 JTAG> >0x30 JTAG> >0x40 JTAG> >0x50 JTAG> >0x40 JTAG> >0x38 JTAG> >0x80 JTAG> >0x40 JTAG> >0x40 JTAG> >0x50 JTAG> >0x40 JTAG> >0x40 JTAG> >0x40 JTAG> >0x50 JTAG> >0x40 JTAG> >0x40 JTAG> >0x30 JTAG> >0x40 JTAG> >0x40 JTAG> >0x40 JTAG> >0x40 JTAG> >0x40 JTAG> >0x50 JTAG> >0x40 JTAG> >0x80 JTAG>
 >0x40 JTAG> >0x30 JTAG> >0x40 JTAG> >0x40 JTAG> >0x40 JTAG> >0x40 JTAG> >0x40 JTAG> >0x50 JTAG> >0x40 JTAG> >0x80 JTAG> >0x40 JTAG> >0x30 JTAG> >0x40 JTAG> >0x50 JTAG> >0x40 JTAG> >0x40 JTAG> >0x40 JTAG> >0x30 JTAG> >0x40 JTAG> >0x50 JTAG> >0x40 JTAG>Found Cortex-M3 r1p1, Little endian. >0x50 JTAG> >0x50 JTAG> >0x40 JTAG> >0x40 JTAG> >0x30 JTAG> >0x30 JTAG> >0x50 JTAG> >0x40 JTAG> >0x80 JTAG> >0x40 JTAG> >0x30 JTAG> >0x40 JTAG> >0x50 JTAG> >0x40 JTAG> >0x40 JTAG> >0x40 JTAG> >0x30 JTAG> >0x40 JTAG>
 >0x50 JTAG> >0x40 JTAG>TPIU fitted. >0x40 JTAG> >0x40 JTAG> >0x30 JTAG> >0x40 JTAG> >0x50 JTAG> >0x40 JTAG> >0x40 JTAG> >0x40 JTAG> >0x30 JTAG> >0x40 JTAG> >0x50 JTAG> >0x40 JTAG> >0x40 JTAG> >0x40 JTAG> >0x30 JTAG> >0x40 JTAG> >0x50 JTAG> >0x40 JTAG>  FPUnit: 6 code (BP) slots and 2 literal slots >0x40 JTAG> >0x40 JTAG> >0x30 JTAG> >0x40 JTAG> >0x50 JTAG> >0x40 JTAG> -- CPU is running -- CPU_WriteMem(4 bytes @ 0xE000EDF0) -- CPU is running -- CPU_WriteMem(4 bytes @ 0xE000EDFC) -- CPU is running
 -- CPU_WriteMem(4 bytes @ 0xE000ED0C) -- CPU is running -- CPU_ReadMem(4 bytes @ 0xE000EDF0) -- CPU is running -- CPU_ReadMem(4 bytes @ 0xE000EDF0) -- CPU is running -- CPU_WriteMem(4 bytes @ 0xE000EDF0) -- CPU is running -- CPU_WriteMem(4 bytes @ 0xE000EDFC) -- CPU is running -- CPU_ReadMem(4 bytes @ 0xE000EDF0) >0x90 JTAG> >0x40 JTAG> >0x30 JTAG> >0x40 JTAG> >0x50 JTAG> >0x40 JTAG> -- CPU_WriteMem(4 bytes @ 0xE000EDFC) -- CPU_WriteMem(4 bytes @ 0xE0001028) -- CPU_WriteMem(4 bytes @ 0xE0001038)
 -- CPU_WriteMem(4 bytes @ 0xE0001048) -- CPU_WriteMem(4 bytes @ 0xE0001058) (0153ms, 0992ms total)
T1F44 001:160 JLINK_ReadReg(R15)  returns 0x08000100 (0000ms, 1145ms total)
T1F44 001:160 JLINK_ReadReg(XPSR)  returns 0x01000000 (0000ms, 1145ms total)
T1F44 001:160 JLINK_ExecCommand("Device = STM32F103RB", ...)
                JLINK_ExecCommand("map ram 0x20000000 - 0x20004FFF", ...)  returns 0x00 (0000ms, 0000ms total)
                JLINK_AddMirrorAreaEx(Addr = 0x00000000, Size = 0x00000000) (0000ms, 0000ms total)
                returns 0x00 (0001ms, 1145ms total)
T1F44 001:161 JLINK_Halt() >0x2F8 JTAG>TotalIRLen = 9, IRPrint = 0x0011 >0x30 JTAG> >0x210 JTAG> >0x80 JTAG> >0x40 JTAG> >0x40 JTAG> >0x50 JTAG> >0x40 JTAG> >0x40 JTAG> >0x40 JTAG> >0x50 JTAG> >0x40 JTAG> >0x40 JTAG> >0x30 JTAG> >0x40 JTAG> >0x50 JTAG> >0x40 JTAG>  returns 0x00 (0024ms, 1146ms total)
T1F44 001:185 JLINK_IsHalted()  returns TRUE (0000ms, 1170ms total)
T1F44 001:185 JLINK_ReadMemU32(0xE000EDF0, 0x0001 Items, ...) >0x38 JTAG> >0x80 JTAG> >0x40 JTAG> >0x40 JTAG> >0x50 JTAG> >0x40 JTAG> >0x40 JTAG> >0x40 JTAG> >0x50 JTAG> >0x40 JTAG> >0x40 JTAG> >0x30 JTAG> >0x40 JTAG> >0x40 JTAG> >0x40 JTAG> >0x40 JTAG> >0x40 JTAG> >0x50 JTAG> >0x40 JTAG> >0x80 JTAG> >0x40 JTAG> >0x30 JTAG> >0x40 JTAG> >0x40 JTAG> >0x40 JTAG> >0x40 JTAG> >0x40 JTAG> >0x50 JTAG> >0x40 JTAG> >0x80 JTAG> >0x40 JTAG> >0x30 JTAG> >0x40 JTAG> >0x50 JTAG> >0x40 JTAG> >0x40 JTAG> >0x40 JTAG>
 >0x30 JTAG> >0x40 JTAG> >0x50 JTAG> >0x40 JTAG>Found Cortex-M3 r1p1, Little endian. >0x50 JTAG> >0x50 JTAG> >0x40 JTAG> >0x40 JTAG> >0x30 JTAG> >0x30 JTAG> >0x50 JTAG> >0x40 JTAG> >0x80 JTAG> >0x40 JTAG> >0x30 JTAG> >0x40 JTAG> >0x50 JTAG> >0x40 JTAG> >0x40 JTAG> >0x40 JTAG> >0x30 JTAG> >0x40 JTAG> >0x50 JTAG> >0x40 JTAG>TPIU fitted. >0x40 JTAG> >0x40 JTAG> >0x30 JTAG> >0x40 JTAG> >0x50 JTAG> >0x40 JTAG> >0x40 JTAG> >0x40 JTAG> >0x30 JTAG> >0x40 JTAG> >0x50 JTAG> >0x40 JTAG> >0x40 JTAG> >0x40 JTAG>
 >0x30 JTAG> >0x40 JTAG> >0x50 JTAG> >0x40 JTAG>  FPUnit: 6 code (BP) slots and 2 literal slots >0x40 JTAG> >0x40 JTAG> >0x30 JTAG> >0x40 JTAG> >0x50 JTAG> >0x40 JTAG> -- CPU_ReadMem(4 bytes @ 0xE000EDF0) -- Data:  03 00 03 00  returns 0x01 (0094ms, 1170ms total)
T1F44 001:279 JLINK_WriteU32(0xE000EDF0, 0xA05F0003) -- CPU_WriteMem(4 bytes @ 0xE000EDF0)  returns 0x00 (0002ms, 1264ms total)
T1F44 001:281 JLINK_WriteU32(0xE000EDFC, 0x01000000) -- CPU_WriteMem(4 bytes @ 0xE000EDFC)  returns 0x00 (0002ms, 1266ms total)
T1F44 001:283 JLINK_ReadMemU32(0xE0002000, 0x0001 Items, ...) -- CPU_ReadMem(4 bytes @ 0xE0002000) -- Data:  60 02 00 00  returns 0x01 (0002ms, 1268ms total)
T1F44 001:285 JLINK_ReadMemU32(0xE0001000, 0x0001 Items, ...) -- CPU_ReadMem(4 bytes @ 0xE0001000) -- Data:  01 00 00 40  returns 0x01 (0002ms, 1270ms total)
T1F44 001:288 JLINK_GetHWStatus(...)  returns 0x00 (0001ms, 1272ms total)
T1F44 001:290 JLINK_GetNumBPUnits(Type = 0xFFFFFF00)  returns 0x06 (0000ms, 1273ms total)
T1F44 001:290 JLINK_GetNumBPUnits(Type = 0xF0)  returns 0x800 (0000ms, 1273ms total)
T1F44 001:290 JLINK_GetNumWPUnits()  returns 0x04 (0000ms, 1273ms total)
T1F44 001:291 JLINK_GetSpeed()  returns 0x7D0 (0000ms, 1273ms total)
T1F44 001:291 JLINK_ReadMemU32(0xE000E004, 0x0001 Items, ...) -- CPU_ReadMem(4 bytes @ 0xE000E004) -- Data:  01 00 00 00  returns 0x01 (0002ms, 1273ms total)
T1F44 001:293 JLINK_WriteMem(0xE0001000, 0x001C Bytes, ...) -- Data:  01 00 00 00 00 00 00 00 00 00 00 00 00 00 00 00 ... -- CPU_WriteMem(28 bytes @ 0xE0001000)  returns 0x1C (0002ms, 1275ms total)
T1F44 001:295 JLINK_ReadMem (0xE0001000, 0x001C Bytes, ...) -- CPU_ReadMem(28 bytes @ 0xE0001000) -- Data:  01 00 00 40 00 00 00 00 00 00 00 00 00 00 00 00 ...  returns 0x00 (0002ms, 1277ms total)
T1F44 001:297 JLINK_ReadReg(R15)  returns 0x08000100 (0000ms, 1279ms total)
T1F44 001:297 JLINK_ReadReg(XPSR)  returns 0x01000000 (0000ms, 1279ms total)
T1F44 004:601 JLINK_SetResetType(JLINKARM_RESET_TYPE_NORMAL)  returns JLINKARM_RESET_TYPE_NORMAL (0000ms, 1279ms total)
T1F44 004:601 JLINK_Reset() >0x308 JTAG>TotalIRLen = 9, IRPrint = 0x0011 >0x30 JTAG> >0x210 JTAG> >0x80 JTAG> >0x40 JTAG> >0x40 JTAG> >0x50 JTAG> >0x40 JTAG> >0x40 JTAG> >0x40 JTAG> >0x50 JTAG> >0x40 JTAG> >0x40 JTAG> >0x30 JTAG> >0x40 JTAG> >0x50 JTAG> >0x40 JTAG> >0x38 JTAG> >0x80 JTAG> >0x40 JTAG> >0x40 JTAG> >0x50 JTAG> >0x40 JTAG> >0x40 JTAG> >0x40 JTAG> >0x50 JTAG> >0x40 JTAG> >0x40 JTAG> >0x30 JTAG> >0x40 JTAG> >0x40 JTAG> >0x40 JTAG> >0x40 JTAG> >0x40 JTAG> >0x50 JTAG> >0x40 JTAG> >0x80 JTAG>
 >0x40 JTAG> >0x30 JTAG> >0x40 JTAG> >0x40 JTAG> >0x40 JTAG> >0x40 JTAG> >0x40 JTAG> >0x50 JTAG> >0x40 JTAG> >0x80 JTAG> >0x40 JTAG> >0x30 JTAG> >0x40 JTAG> >0x50 JTAG> >0x40 JTAG> >0x40 JTAG> >0x40 JTAG> >0x30 JTAG> >0x40 JTAG> >0x50 JTAG> >0x40 JTAG>Found Cortex-M3 r1p1, Little endian. >0x50 JTAG> >0x50 JTAG> >0x40 JTAG> >0x40 JTAG> >0x30 JTAG> >0x30 JTAG> >0x50 JTAG> >0x40 JTAG> >0x80 JTAG> >0x40 JTAG> >0x30 JTAG> >0x40 JTAG> >0x50 JTAG> >0x40 JTAG> >0x40 JTAG> >0x40 JTAG> >0x30 JTAG> >0x40 JTAG>
 >0x50 JTAG> >0x40 JTAG>TPIU fitted. >0x40 JTAG> >0x40 JTAG> >0x30 JTAG> >0x40 JTAG> >0x50 JTAG> >0x40 JTAG> >0x40 JTAG> >0x40 JTAG> >0x30 JTAG> >0x40 JTAG> >0x50 JTAG> >0x40 JTAG> >0x40 JTAG> >0x40 JTAG> >0x30 JTAG> >0x40 JTAG> >0x50 JTAG> >0x40 JTAG>  FPUnit: 6 code (BP) slots and 2 literal slots >0x40 JTAG> >0x40 JTAG> >0x30 JTAG> >0x40 JTAG> >0x50 JTAG> >0x40 JTAG> -- CPU_WriteMem(4 bytes @ 0xE000EDF0) -- CPU_WriteMem(4 bytes @ 0xE000EDFC) -- CPU_WriteMem(4 bytes @ 0xE000ED0C)
 -- CPU_ReadMem(4 bytes @ 0xE000EDF0) -- CPU_ReadMem(4 bytes @ 0xE000EDF0) -- CPU_WriteMem(4 bytes @ 0xE000EDF0) -- CPU_WriteMem(4 bytes @ 0xE000EDFC) -- CPU is running -- CPU_ReadMem(4 bytes @ 0xE000EDF0) >0x90 JTAG> >0x40 JTAG> >0x30 JTAG> >0x40 JTAG> >0x50 JTAG> >0x40 JTAG> -- CPU_WriteMem(4 bytes @ 0xE000EDFC) -- CPU_WriteMem(4 bytes @ 0xE0001028) -- CPU_WriteMem(4 bytes @ 0xE0001038) -- CPU_WriteMem(4 bytes @ 0xE0001048) -- CPU_WriteMem(4 bytes @ 0xE0001058) (0155ms, 1279ms total)
T1F44 004:756 JLINK_ReadReg(R15)  returns 0x08000100 (0001ms, 1434ms total)
T1F44 004:757 JLINK_ReadReg(XPSR)  returns 0x01000000 (0000ms, 1435ms total)
T1F44 004:757 JLINK_ReadReg(R0)  returns 0x080056D0 (0000ms, 1435ms total)
T1F44 004:757 JLINK_ReadReg(R1)  returns 0x00000080 (0000ms, 1435ms total)
T1F44 004:757 JLINK_ReadReg(R2)  returns 0x40013800 (0000ms, 1435ms total)
T1F44 004:757 JLINK_ReadReg(R3)  returns 0x00000001 (0000ms, 1435ms total)
T1F44 004:757 JLINK_ReadReg(R4)  returns 0xFFFFFFFF (0000ms, 1435ms total)
T1F44 004:757 JLINK_ReadReg(R5)  returns 0x080056D0 (0001ms, 1435ms total)
T1F44 004:758 JLINK_ReadReg(R6)  returns 0x00000000 (0000ms, 1436ms total)
T1F44 004:758 JLINK_ReadReg(R7)  returns 0x00000000 (0000ms, 1436ms total)
T1F44 004:758 JLINK_ReadReg(R8)  returns 0x00000000 (0000ms, 1436ms total)
T1F44 004:758 JLINK_ReadReg(R9)  returns 0x20000160 (0000ms, 1436ms total)
T1F44 004:758 JLINK_ReadReg(R10)  returns 0x00000000 (0000ms, 1436ms total)
T1F44 004:758 JLINK_ReadReg(R11)  returns 0x00000000 (0000ms, 1436ms total)
T1F44 004:758 JLINK_ReadReg(R12)  returns 0x00000080 (0000ms, 1436ms total)
T1F44 004:758 JLINK_ReadReg(R14)  returns 0xFFFFFFFF (0001ms, 1436ms total)
T1F44 004:759 JLINK_ReadReg(R15)  returns 0x08000100 (0000ms, 1437ms total)
T1F44 004:759 JLINK_ReadReg(XPSR)  returns 0x01000000 (0000ms, 1437ms total)
T1F44 004:759 JLINK_ReadReg(CFBP)  returns 0x00000000 (0000ms, 1437ms total)
T1F44 004:759 JLINK_ReadReg(MSP)  returns 0x20000490 (0000ms, 1437ms total)
T1F44 004:759 JLINK_WriteReg(R0, 0x080056D0)  returns 0x00 (0000ms, 1437ms total)
T1F44 004:759 JLINK_WriteReg(R1, 0x00000080)  returns 0x00 (0000ms, 1437ms total)
T1F44 004:759 JLINK_WriteReg(R2, 0x40013800)  returns 0x00 (0001ms, 1437ms total)
T1F44 004:760 JLINK_WriteReg(R3, 0x00000001)  returns 0x00 (0000ms, 1438ms total)
T1F44 004:760 JLINK_WriteReg(R4, 0xFFFFFFFF)  returns 0x00 (0000ms, 1438ms total)
T1F44 004:760 JLINK_WriteReg(R5, 0x080056D0)  returns 0x00 (0000ms, 1438ms total)
T1F44 004:760 JLINK_WriteReg(R6, 0x00000000)  returns 0x00 (0000ms, 1438ms total)
T1F44 004:760 JLINK_WriteReg(R7, 0x00000000)  returns 0x00 (0000ms, 1438ms total)
T1F44 004:760 JLINK_WriteReg(R8, 0x00000000)  returns 0x00 (0000ms, 1438ms total)
T1F44 004:760 JLINK_WriteReg(R9, 0x20000160)  returns 0x00 (0000ms, 1438ms total)
T1F44 004:761 JLINK_WriteReg(R10, 0x00000000)  returns 0x00 (0000ms, 1439ms total)
T1F44 004:761 JLINK_WriteReg(R11, 0x00000000)  returns 0x00 (0000ms, 1439ms total)
T1F44 004:761 JLINK_WriteReg(R12, 0x00000080)  returns 0x00 (0000ms, 1439ms total)
T1F44 004:761 JLINK_WriteReg(R13, 0x20000490)  returns 0x00 (0000ms, 1439ms total)
T1F44 004:761 JLINK_WriteReg(R14, 0xFFFFFFFF)  returns 0x00 (0000ms, 1439ms total)
T1F44 004:761 JLINK_WriteReg(R15, 0x08000100)  returns 0x00 (0000ms, 1439ms total)
T1F44 004:761 JLINK_WriteReg(XPSR, 0x01000000)  returns 0x00 (0000ms, 1439ms total)
T1F44 004:761 JLINK_WriteReg(MSP, 0x20000490)  returns 0x00 (0001ms, 1439ms total)
T1F44 004:762 JLINK_WriteReg(PSP, 0x00000000)  returns 0x00 (0000ms, 1440ms total)
T1F44 004:762 JLINK_WriteReg(CFBP, 0x00000000)  returns 0x00 (0000ms, 1440ms total)
T1F44 004:762 JLINK_ReadReg(R0)  returns 0x080056D0 (0000ms, 1440ms total)
T1F44 004:762 JLINK_ReadReg(R1)  returns 0x00000080 (0000ms, 1440ms total)
T1F44 004:762 JLINK_ReadReg(R2)  returns 0x40013800 (0000ms, 1440ms total)
T1F44 004:762 JLINK_ReadReg(R3)  returns 0x00000001 (0001ms, 1440ms total)
T1F44 004:763 JLINK_ReadReg(R4)  returns 0xFFFFFFFF (0000ms, 1441ms total)
T1F44 004:763 JLINK_ReadReg(R5)  returns 0x080056D0 (0000ms, 1441ms total)
T1F44 004:763 JLINK_ReadReg(R6)  returns 0x00000000 (0000ms, 1441ms total)
T1F44 004:763 JLINK_ReadReg(R7)  returns 0x00000000 (0000ms, 1441ms total)
T1F44 004:763 JLINK_ReadReg(R8)  returns 0x00000000 (0000ms, 1441ms total)
T1F44 004:763 JLINK_ReadReg(R9)  returns 0x20000160 (0000ms, 1441ms total)
T1F44 004:763 JLINK_ReadReg(R10)  returns 0x00000000 (0000ms, 1441ms total)
T1F44 004:763 JLINK_ReadReg(R11)  returns 0x00000000 (0001ms, 1441ms total)
T1F44 004:764 JLINK_ReadReg(R12)  returns 0x00000080 (0000ms, 1442ms total)
T1F44 004:764 JLINK_ReadReg(R14)  returns 0xFFFFFFFF (0000ms, 1442ms total)
T1F44 004:764 JLINK_ReadReg(R15)  returns 0x08000100 (0000ms, 1442ms total)
T1F44 004:764 JLINK_ReadReg(XPSR)  returns 0x01000000 (0000ms, 1442ms total)
T1F44 004:764 JLINK_ReadReg(CFBP)  returns 0x00000000 (0000ms, 1442ms total)
T1F44 004:764 JLINK_ReadReg(MSP)  returns 0x20000490 (0001ms, 1442ms total)
T1F44 004:765 JLINK_ReadMemU32(0xE0001004, 0x0001 Items, ...) -- CPU_ReadMem(4 bytes @ 0xE0001004) -- Data:  00 00 00 00  returns 0x01 (0002ms, 1443ms total)
T1F44 004:767 JLINK_ReadMem (0x08000100, 0x003C Bytes, ...) -- CPU_ReadMem(64 bytes @ 0x08000100) -- Updating C cache (64 bytes @ 0x08000100) -- Read from C cache (60 bytes @ 0x08000100) -- Data:  06 48 80 47 06 48 00 47 FE E7 FE E7 FE E7 FE E7 ...  returns 0x00 (0003ms, 1445ms total)
T1F44 005:651 JLINK_WriteReg(R0, 0x080056D0)  returns 0x00 (0001ms, 1448ms total)
T1F44 005:652 JLINK_WriteReg(R1, 0x00000080)  returns 0x00 (0000ms, 1449ms total)
T1F44 005:652 JLINK_WriteReg(R2, 0x40013800)  returns 0x00 (0000ms, 1449ms total)
T1F44 005:652 JLINK_WriteReg(R3, 0x00000001)  returns 0x00 (0000ms, 1449ms total)
T1F44 005:652 JLINK_WriteReg(R4, 0xFFFFFFFF)  returns 0x00 (0000ms, 1449ms total)
T1F44 005:652 JLINK_WriteReg(R5, 0x080056D0)  returns 0x00 (0000ms, 1449ms total)
T1F44 005:652 JLINK_WriteReg(R6, 0x00000000)  returns 0x00 (0000ms, 1449ms total)
T1F44 005:652 JLINK_WriteReg(R7, 0x00000000)  returns 0x00 (0001ms, 1449ms total)
T1F44 005:653 JLINK_WriteReg(R8, 0x00000000)  returns 0x00 (0000ms, 1450ms total)
T1F44 005:653 JLINK_WriteReg(R9, 0x20000160)  returns 0x00 (0000ms, 1450ms total)
T1F44 005:653 JLINK_WriteReg(R10, 0x00000000)  returns 0x00 (0000ms, 1450ms total)
T1F44 005:653 JLINK_WriteReg(R11, 0x00000000)  returns 0x00 (0000ms, 1450ms total)
T1F44 005:653 JLINK_WriteReg(R12, 0x00000080)  returns 0x00 (0000ms, 1450ms total)
T1F44 005:653 JLINK_WriteReg(R13, 0x20000490)  returns 0x00 (0000ms, 1450ms total)
T1F44 005:653 JLINK_WriteReg(R14, 0xFFFFFFFF)  returns 0x00 (0000ms, 1450ms total)
T1F44 005:653 JLINK_WriteReg(R15, 0x08000100)  returns 0x00 (0001ms, 1450ms total)
T1F44 005:654 JLINK_WriteReg(XPSR, 0x01000000)  returns 0x00 (0000ms, 1451ms total)
T1F44 005:654 JLINK_WriteReg(MSP, 0x20000490)  returns 0x00 (0000ms, 1451ms total)
T1F44 005:654 JLINK_WriteReg(PSP, 0x00000000)  returns 0x00 (0000ms, 1451ms total)
T1F44 005:654 JLINK_WriteReg(CFBP, 0x00000000)  returns 0x00 (0000ms, 1451ms total)
T1F44 005:654 JLINK_ReadReg(R0)  returns 0x080056D0 (0000ms, 1451ms total)
T1F44 005:654 JLINK_ReadReg(R1)  returns 0x00000080 (0000ms, 1451ms total)
T1F44 005:654 JLINK_ReadReg(R2)  returns 0x40013800 (0001ms, 1451ms total)
T1F44 005:655 JLINK_ReadReg(R3)  returns 0x00000001 (0000ms, 1452ms total)
T1F44 005:655 JLINK_ReadReg(R4)  returns 0xFFFFFFFF (0000ms, 1452ms total)
T1F44 005:655 JLINK_ReadReg(R5)  returns 0x080056D0 (0000ms, 1452ms total)
T1F44 005:655 JLINK_ReadReg(R6)  returns 0x00000000 (0000ms, 1452ms total)
T1F44 005:655 JLINK_ReadReg(R7)  returns 0x00000000 (0000ms, 1452ms total)
T1F44 005:655 JLINK_ReadReg(R8)  returns 0x00000000 (0000ms, 1452ms total)
T1F44 005:655 JLINK_ReadReg(R9)  returns 0x20000160 (0001ms, 1452ms total)
T1F44 005:656 JLINK_ReadReg(R10)  returns 0x00000000 (0000ms, 1453ms total)
T1F44 005:656 JLINK_ReadReg(R11)  returns 0x00000000 (0000ms, 1453ms total)
T1F44 005:656 JLINK_ReadReg(R12)  returns 0x00000080 (0000ms, 1453ms total)
T1F44 005:656 JLINK_ReadReg(R14)  returns 0xFFFFFFFF (0000ms, 1453ms total)
T1F44 005:656 JLINK_ReadReg(R15)  returns 0x08000100 (0000ms, 1453ms total)
T1F44 005:656 JLINK_ReadReg(XPSR)  returns 0x01000000 (0000ms, 1453ms total)
T1F44 005:656 JLINK_ReadReg(CFBP)  returns 0x00000000 (0000ms, 1453ms total)
T1F44 005:656 JLINK_ReadReg(MSP)  returns 0x20000490 (0001ms, 1453ms total)
T1F44 005:657 JLINK_ReadMemU32(0xE0001004, 0x0001 Items, ...) -- CPU_ReadMem(4 bytes @ 0xE0001004) -- Data:  00 00 00 00  returns 0x01 (0002ms, 1454ms total)
T1F44 008:307 JLINK_SetResetType(JLINKARM_RESET_TYPE_NORMAL)  returns JLINKARM_RESET_TYPE_NORMAL (0000ms, 1456ms total)
T1F44 008:307 JLINK_Reset() >0x2F8 JTAG>TotalIRLen = 9, IRPrint = 0x0011 >0x30 JTAG> >0x210 JTAG> >0x80 JTAG> >0x40 JTAG> >0x40 JTAG> >0x50 JTAG> >0x40 JTAG> >0x40 JTAG> >0x40 JTAG> >0x50 JTAG> >0x40 JTAG> >0x40 JTAG> >0x30 JTAG> >0x40 JTAG> >0x50 JTAG> >0x40 JTAG> >0x38 JTAG> >0x80 JTAG> >0x40 JTAG> >0x40 JTAG> >0x50 JTAG> >0x40 JTAG> >0x40 JTAG> >0x40 JTAG> >0x50 JTAG> >0x40 JTAG> >0x40 JTAG> >0x30 JTAG> >0x40 JTAG> >0x40 JTAG> >0x40 JTAG> >0x40 JTAG> >0x40 JTAG> >0x50 JTAG> >0x40 JTAG> >0x80 JTAG>
 >0x40 JTAG> >0x30 JTAG> >0x40 JTAG> >0x40 JTAG> >0x40 JTAG> >0x40 JTAG> >0x40 JTAG> >0x50 JTAG> >0x40 JTAG> >0x80 JTAG> >0x40 JTAG> >0x30 JTAG> >0x40 JTAG> >0x50 JTAG> >0x40 JTAG> >0x40 JTAG> >0x40 JTAG> >0x30 JTAG> >0x40 JTAG> >0x50 JTAG> >0x40 JTAG>Found Cortex-M3 r1p1, Little endian. >0x50 JTAG> >0x50 JTAG> >0x40 JTAG> >0x40 JTAG> >0x30 JTAG> >0x30 JTAG> >0x50 JTAG> >0x40 JTAG> >0x80 JTAG> >0x40 JTAG> >0x30 JTAG> >0x40 JTAG> >0x50 JTAG> >0x40 JTAG> >0x40 JTAG> >0x40 JTAG> >0x30 JTAG> >0x40 JTAG>
 >0x50 JTAG> >0x40 JTAG>TPIU fitted. >0x40 JTAG> >0x40 JTAG> >0x30 JTAG> >0x40 JTAG> >0x50 JTAG> >0x40 JTAG> >0x40 JTAG> >0x40 JTAG> >0x30 JTAG> >0x40 JTAG> >0x50 JTAG> >0x40 JTAG> >0x40 JTAG> >0x40 JTAG> >0x30 JTAG> >0x40 JTAG> >0x50 JTAG> >0x40 JTAG>  FPUnit: 6 code (BP) slots and 2 literal slots >0x40 JTAG> >0x40 JTAG> >0x30 JTAG> >0x40 JTAG> >0x50 JTAG> >0x40 JTAG> -- CPU_WriteMem(4 bytes @ 0xE000EDF0) -- CPU_WriteMem(4 bytes @ 0xE000EDFC) -- CPU_WriteMem(4 bytes @ 0xE000ED0C)
 -- CPU_ReadMem(4 bytes @ 0xE000EDF0) -- CPU_ReadMem(4 bytes @ 0xE000EDF0) -- CPU_WriteMem(4 bytes @ 0xE000EDF0) -- CPU_WriteMem(4 bytes @ 0xE000EDFC) -- CPU is running -- CPU_ReadMem(4 bytes @ 0xE000EDF0) >0x90 JTAG> >0x40 JTAG> >0x30 JTAG> >0x40 JTAG> >0x50 JTAG> >0x40 JTAG> -- CPU_WriteMem(4 bytes @ 0xE000EDFC) -- CPU_WriteMem(4 bytes @ 0xE0001028) -- CPU_WriteMem(4 bytes @ 0xE0001038) -- CPU_WriteMem(4 bytes @ 0xE0001048) -- CPU_WriteMem(4 bytes @ 0xE0001058) (0151ms, 1456ms total)
T1F44 008:459 JLINK_ReadReg(R15)  returns 0x08000100 (0000ms, 1607ms total)
T1F44 008:459 JLINK_ReadReg(XPSR)  returns 0x01000000 (0001ms, 1607ms total)
T1F44 008:460 JLINK_ReadReg(R0)  returns 0x080056D0 (0000ms, 1608ms total)
T1F44 008:460 JLINK_ReadReg(R1)  returns 0x00000080 (0000ms, 1608ms total)
T1F44 008:460 JLINK_ReadReg(R2)  returns 0x40013800 (0000ms, 1608ms total)
T1F44 008:460 JLINK_ReadReg(R3)  returns 0x00000001 (0000ms, 1608ms total)
T1F44 008:460 JLINK_ReadReg(R4)  returns 0xFFFFFFFF (0000ms, 1608ms total)
T1F44 008:460 JLINK_ReadReg(R5)  returns 0x080056D0 (0000ms, 1608ms total)
T1F44 008:460 JLINK_ReadReg(R6)  returns 0x00000000 (0001ms, 1608ms total)
T1F44 008:461 JLINK_ReadReg(R7)  returns 0x00000000 (0000ms, 1609ms total)
T1F44 008:461 JLINK_ReadReg(R8)  returns 0x00000000 (0000ms, 1609ms total)
T1F44 008:461 JLINK_ReadReg(R9)  returns 0x20000160 (0000ms, 1609ms total)
T1F44 008:461 JLINK_ReadReg(R10)  returns 0x00000000 (0000ms, 1609ms total)
T1F44 008:461 JLINK_ReadReg(R11)  returns 0x00000000 (0000ms, 1609ms total)
T1F44 008:461 JLINK_ReadReg(R12)  returns 0x00000080 (0000ms, 1609ms total)
T1F44 008:461 JLINK_ReadReg(R14)  returns 0xFFFFFFFF (0000ms, 1609ms total)
T1F44 008:461 JLINK_ReadReg(R15)  returns 0x08000100 (0001ms, 1609ms total)
T1F44 008:462 JLINK_ReadReg(XPSR)  returns 0x01000000 (0000ms, 1610ms total)
T1F44 008:462 JLINK_ReadReg(CFBP)  returns 0x00000000 (0000ms, 1610ms total)
T1F44 008:462 JLINK_ReadReg(MSP)  returns 0x20000490 (0000ms, 1610ms total)
T1F44 008:462 JLINK_WriteReg(R0, 0x080056D0)  returns 0x00 (0001ms, 1610ms total)
T1F44 008:463 JLINK_WriteReg(R1, 0x00000080)  returns 0x00 (0000ms, 1611ms total)
T1F44 008:463 JLINK_WriteReg(R2, 0x40013800)  returns 0x00 (0000ms, 1611ms total)
T1F44 008:463 JLINK_WriteReg(R3, 0x00000001)  returns 0x00 (0000ms, 1611ms total)
T1F44 008:463 JLINK_WriteReg(R4, 0xFFFFFFFF)  returns 0x00 (0000ms, 1611ms total)
T1F44 008:463 JLINK_WriteReg(R5, 0x080056D0)  returns 0x00 (0000ms, 1611ms total)
T1F44 008:463 JLINK_WriteReg(R6, 0x00000000)  returns 0x00 (0000ms, 1611ms total)
T1F44 008:463 JLINK_WriteReg(R7, 0x00000000)  returns 0x00 (0000ms, 1611ms total)
T1F44 008:464 JLINK_WriteReg(R8, 0x00000000)  returns 0x00 (0000ms, 1612ms total)
T1F44 008:464 JLINK_WriteReg(R9, 0x20000160)  returns 0x00 (0000ms, 1612ms total)
T1F44 008:464 JLINK_WriteReg(R10, 0x00000000)  returns 0x00 (0000ms, 1612ms total)
T1F44 008:464 JLINK_WriteReg(R11, 0x00000000)  returns 0x00 (0000ms, 1612ms total)
T1F44 008:464 JLINK_WriteReg(R12, 0x00000080)  returns 0x00 (0000ms, 1612ms total)
T1F44 008:464 JLINK_WriteReg(R13, 0x20000490)  returns 0x00 (0000ms, 1612ms total)
T1F44 008:464 JLINK_WriteReg(R14, 0xFFFFFFFF)  returns 0x00 (0000ms, 1612ms total)
T1F44 008:464 JLINK_WriteReg(R15, 0x08000100)  returns 0x00 (0001ms, 1612ms total)
T1F44 008:465 JLINK_WriteReg(XPSR, 0x01000000)  returns 0x00 (0000ms, 1613ms total)
T1F44 008:465 JLINK_WriteReg(MSP, 0x20000490)  returns 0x00 (0000ms, 1613ms total)
T1F44 008:465 JLINK_WriteReg(PSP, 0x00000000)  returns 0x00 (0000ms, 1613ms total)
T1F44 008:465 JLINK_WriteReg(CFBP, 0x00000000)  returns 0x00 (0000ms, 1613ms total)
T1F44 008:465 JLINK_ReadReg(R0)  returns 0x080056D0 (0000ms, 1613ms total)
T1F44 008:466 JLINK_ReadReg(R1)  returns 0x00000080 (0000ms, 1613ms total)
T1F44 008:466 JLINK_ReadReg(R2)  returns 0x40013800 (0000ms, 1613ms total)
T1F44 008:466 JLINK_ReadReg(R3)  returns 0x00000001 (0000ms, 1613ms total)
T1F44 008:466 JLINK_ReadReg(R4)  returns 0xFFFFFFFF (0000ms, 1613ms total)
T1F44 008:466 JLINK_ReadReg(R5)  returns 0x080056D0 (0000ms, 1613ms total)
T1F44 008:466 JLINK_ReadReg(R6)  returns 0x00000000 (0000ms, 1613ms total)
T1F44 008:466 JLINK_ReadReg(R7)  returns 0x00000000 (0000ms, 1613ms total)
T1F44 008:466 JLINK_ReadReg(R8)  returns 0x00000000 (0001ms, 1613ms total)
T1F44 008:467 JLINK_ReadReg(R9)  returns 0x20000160 (0000ms, 1614ms total)
T1F44 008:467 JLINK_ReadReg(R10)  returns 0x00000000 (0000ms, 1614ms total)
T1F44 008:467 JLINK_ReadReg(R11)  returns 0x00000000 (0000ms, 1614ms total)
T1F44 008:467 JLINK_ReadReg(R12)  returns 0x00000080 (0000ms, 1614ms total)
T1F44 008:467 JLINK_ReadReg(R14)  returns 0xFFFFFFFF (0000ms, 1614ms total)
T1F44 008:467 JLINK_ReadReg(R15)  returns 0x08000100 (0000ms, 1614ms total)
T1F44 008:467 JLINK_ReadReg(XPSR)  returns 0x01000000 (0001ms, 1614ms total)
T1F44 008:468 JLINK_ReadReg(CFBP)  returns 0x00000000 (0000ms, 1615ms total)
T1F44 008:468 JLINK_ReadReg(MSP)  returns 0x20000490 (0000ms, 1615ms total)
T1F44 008:468 JLINK_ReadMemU32(0xE0001004, 0x0001 Items, ...) -- CPU_ReadMem(4 bytes @ 0xE0001004) -- Data:  00 00 00 00  returns 0x01 (0002ms, 1615ms total)
T1F44 008:475 JLINK_ReadMem (0x08000100, 0x003C Bytes, ...) -- CPU_ReadMem(64 bytes @ 0x08000100) -- Updating C cache (64 bytes @ 0x08000100) -- Read from C cache (60 bytes @ 0x08000100) -- Data:  06 48 80 47 06 48 00 47 FE E7 FE E7 FE E7 FE E7 ...  returns 0x00 (0003ms, 1617ms total)
T1F3C 009:004 JLINK_SetBPEx(Addr = 0x080003B0, Type = 0xFFFFFFF2)  returns 0x00000001 (0000ms, 1620ms total)
T1F3C 009:005 JLINK_SetBPEx(Addr = 0x08000330, Type = 0xFFFFFFF2)  returns 0x00000002 (0000ms, 1620ms total)
T1F3C 009:005 JLINK_SetBPEx(Addr = 0x080003F0, Type = 0xFFFFFFF2)  returns 0x00000003 (0000ms, 1620ms total)
T1F3C 009:005 JLINK_SetBPEx(Addr = 0x08000406, Type = 0xFFFFFFF2)  returns 0x00000004 (0000ms, 1620ms total)
T1F3C 009:005 JLINK_SetBPEx(Addr = 0x08000436, Type = 0xFFFFFFF2)  returns 0x00000005 (0000ms, 1620ms total)
T1F3C 009:005 JLINK_SetBPEx(Addr = 0x0800046C, Type = 0xFFFFFFF2)  returns 0x00000006 (0001ms, 1620ms total)
T1F3C 009:006 JLINK_SetBPEx(Addr = 0x080004DE, Type = 0xFFFFFFF2) -- BP[0] @ 0x080003B0 converted into FlashBP  returns 0x00000007 (0000ms, 1621ms total)
T1F3C 009:006 JLINK_SetBPEx(Addr = 0x08000502, Type = 0xFFFFFFF2) -- BP[1] @ 0x08000330 converted into FlashBP  returns 0x00000008 (0000ms, 1621ms total)
T1F3C 009:006 JLINK_Go() -- Read from C cache (2 bytes @ 0x08000100) -- Not simulated -- CPU_ReadMem(256 bytes @ 0x08000000) -- Updating C cache (256 bytes @ 0x08000000) -- CPU_ReadMem(704 bytes @ 0x08000140) -- Updating C cache (704 bytes @ 0x08000140) -- Read from C cache (1024 bytes @ 0x08000000) -- Updating flash cache (1024 bytes @ 0x08000000)  -- Programming range 0x08000000 - 0x080003FF (1 Sector, 1024 Bytes)
                JLINK_GetDeviceFamily()  returns 3 (0000ms, 0000ms total)
                JLINK_ReadReg(XPSR)  returns 0x01000000 (0000ms, 0000ms total)
                JLINK_ReadReg(CFBP)  returns 0x00000000 (0000ms, 0000ms total)
                JLINK_ReadReg(R0)  returns 0x080056D0 (0000ms, 0001ms total)
                JLINK_ReadReg(R1)  returns 0x00000080 (0000ms, 0001ms total)
                JLINK_ReadReg(R2)  returns 0x40013800 (0000ms, 0001ms total)
                JLINK_ReadReg(R3)  returns 0x00000001 (0000ms, 0001ms total)
                JLINK_ReadReg(R4)  returns 0xFFFFFFFF (0000ms, 0001ms total)
                JLINK_ReadReg(R5)  returns 0x080056D0 (0001ms, 0001ms total)
                JLINK_ReadReg(R6)  returns 0x00000000 (0001ms, 0002ms total)
                JLINK_ReadReg(R7)  returns 0x00000000 (0000ms, 0003ms total)
                JLINK_ReadReg(R8)  returns 0x00000000 (0000ms, 0003ms total)
                JLINK_ReadReg(R9)  returns 0x20000160 (0000ms, 0003ms total)
                JLINK_ReadReg(R10)  returns 0x00000000 (0001ms, 0003ms total)
                JLINK_ReadReg(R11)  returns 0x00000000 (0000ms, 0004ms total)
                JLINK_ReadReg(R12)  returns 0x00000080 (0000ms, 0004ms total)
                JLINK_ReadReg(R14)  returns 0xFFFFFFFF (0000ms, 0004ms total)
                JLINK_ReadReg(R15)  returns 0x08000100 (0000ms, 0004ms total)
                JLINK_ReadReg(MSP)  returns 0x20000490 (0000ms, 0004ms total)
                JLINK_ReadReg(PSP)  returns 0x00000000 (0000ms, 0005ms total)
                JLINK_WA_AddRange(Addr = 0x20000000, NumBytes = 0x2000) -- CPU_ReadMem(8192 bytes @ 0x20000000)  returns 0x00 (0055ms, 0005ms total)
                JLINK_WriteMem(0x20000000, 0x2000 Bytes, ...) -- Data:  00 01 02 03 04 05 06 07 08 09 0A 0B 0C 0D 0E 0F ... -- CPU_WriteMem(8192 bytes @ 0x20000000)  returns 0x2000 (0049ms, 0060ms total)
                JLINK_ReadMem (0x20000000, 0x2000 Bytes, ...) -- CPU_ReadMem(8192 bytes @ 0x20000000) -- Data:  00 01 02 03 04 05 06 07 08 09 0A 0B 0C 0D 0E 0F ...  returns 0x00 (0050ms, 0109ms total)
                JLINK_WriteMemEx(0x20000000, 0x0358 Bytes, ..., AccessWidth = 0) -- Data:  00 BE FE E7 69 E0 83 E0 52 E0 29 E0 84 E0 88 E0 ... -- CPU_WriteMem(856 bytes @ 0x20000000)  returns 0x358 (0006ms, 0159ms total)
                JLINK_ReadMemEx(0x20000000, 0x0358 Bytes, ..., AccessWidth = 0) -- CPU_ReadMem(856 bytes @ 0x20000000) -- Data:  00 BE FE E7 69 E0 83 E0 52 E0 29 E0 84 E0 88 E0 ...  returns 0x358 (0007ms, 0166ms total)
                JLINK_WriteReg(XPSR, 0x01000000)  returns 0x00 (0000ms, 0173ms total)
                JLINK_WriteReg(R13, 0x20000418)  returns 0x00 (0000ms, 0173ms total)
                JLINK_WriteReg(R15, 0x2000000C)  returns 0x00 (0000ms, 0173ms total)
                JLINK_GoIntDis() (0003ms, 0173ms total)
                JLINK_IsHalted()  returns TRUE (0010ms, 0176ms total)
                JLINK_ReadReg(R15)  returns 0x20000000 (0000ms, 0186ms total)
                JLINK_WriteReg(R0, 0x00000001)  returns 0x00 (0000ms, 0186ms total)
                JLINK_WriteReg(R1, 0x08000000)  returns 0x00 (0000ms, 0186ms total)
                JLINK_WriteReg(R2, 0x08000000)  returns 0x00 (0000ms, 0186ms total)
                JLINK_WriteReg(R3, 0x00000000)  returns 0x00 (0000ms, 0186ms total)
                JLINK_WriteReg(XPSR, 0x01000000)  returns 0x00 (0000ms, 0186ms total)
                JLINK_WriteReg(R13, 0x20000418)  returns 0x00 (0000ms, 0186ms total)
                JLINK_WriteReg(R15, 0x20000006)  returns 0x00 (0000ms, 0186ms total)
                JLINK_GoIntDis() (0003ms, 0186ms total)
                JLINK_IsHalted()  returns FALSE (0002ms, 0190ms total)
                JLINK_IsHalted()  returns FALSE (0001ms, 0192ms total)
                JLINK_IsHalted()  returns FALSE (0001ms, 0194ms total)
                JLINK_IsHalted()  returns FALSE (0001ms, 0196ms total)
                JLINK_IsHalted()  returns FALSE (0001ms, 0197ms total)
                JLINK_IsHalted()  returns FALSE (0003ms, 0198ms total)
                JLINK_IsHalted()  returns FALSE (0002ms, 0201ms total)
                JLINK_IsHalted()  returns FALSE (0001ms, 0203ms total)
                JLINK_IsHalted()  returns FALSE (0002ms, 0204ms total)
                JLINK_IsHalted()  returns FALSE (0001ms, 0206ms total)
                JLINK_IsHalted()  returns FALSE (0000ms, 0208ms total)
                JLINK_IsHalted()  returns FALSE (0001ms, 0209ms total)
                JLINK_IsHalted()  returns FALSE (0001ms, 0210ms total)
                JLINK_IsHalted()  returns TRUE (0011ms, 0212ms total)
                JLINK_ReadReg(R15)  returns 0x20000000 (0000ms, 0223ms total)
                JLINK_ReadReg(R0)  returns 0x00000000 (0000ms, 0223ms total)
                JLINK_WriteMemEx(0x20000438, 0x0400 Bytes, ..., AccessWidth = 0) -- Data:  90 04 00 20 01 01 00 08 27 01 00 08 29 01 00 08 ... -- CPU_WriteMem(1024 bytes @ 0x20000438)  returns 0x400 (0008ms, 0223ms total)
                JLINK_WriteReg(R3, 0x08000000)  returns 0x00 (0000ms, 0231ms total)
                JLINK_WriteReg(R4, 0x00000200)  returns 0x00 (0000ms, 0231ms total)
                JLINK_WriteReg(R5, 0x08000000)  returns 0x00 (0000ms, 0231ms total)
                JLINK_WriteReg(R6, 0x08000000)  returns 0x00 (0000ms, 0231ms total)
                JLINK_WriteReg(R7, 0x00000000)  returns 0x00 (0000ms, 0231ms total)
                JLINK_WriteReg(XPSR, 0x01000000)  returns 0x00 (0000ms, 0231ms total)
                JLINK_WriteReg(R13, 0x20000418)  returns 0x00 (0000ms, 0231ms total)
                JLINK_WriteReg(R15, 0x20000004)  returns 0x00 (0000ms, 0231ms total)
                JLINK_GoIntDis() (0003ms, 0231ms total)
                JLINK_IsHalted()  returns FALSE (0002ms, 0234ms total)
                JLINK_IsHalted()  returns FALSE (0001ms, 0236ms total)
                JLINK_IsHalted()  returns FALSE (0003ms, 0237ms total)
                JLINK_IsHalted()  returns FALSE (0001ms, 0240ms total)
                JLINK_IsHalted()  returns FALSE (0001ms, 0241ms total)
                JLINK_IsHalted()  returns FALSE (0001ms, 0243ms total)
                JLINK_IsHalted()  returns FALSE (0001ms, 0244ms total)
                JLINK_IsHalted()  returns FALSE (0002ms, 0246ms total)
                JLINK_IsHalted()  returns FALSE (0001ms, 0248ms total)
                JLINK_IsHalted()  returns FALSE (0001ms, 0249ms total)
                JLINK_IsHalted()  returns FALSE (0001ms, 0251ms total)
                JLINK_IsHalted()  returns FALSE (0001ms, 0253ms total)
                JLINK_IsHalted()  returns FALSE (0002ms, 0255ms total)
                JLINK_IsHalted()  returns FALSE (0001ms, 0257ms total)
                JLINK_IsHalted()  returns FALSE (0002ms, 0258ms total)
                JLINK_IsHalted()  returns FALSE (0001ms, 0260ms total)
                JLINK_IsHalted()  returns FALSE (0001ms, 0261ms total)
                JLINK_IsHalted()  returns TRUE (0011ms, 0262ms total)
                JLINK_ReadReg(R15)  returns 0x20000000 (0000ms, 0273ms total)
                JLINK_ReadReg(R0)  returns 0x00000000 (0000ms, 0273ms total)
                JLINK_ReadReg(R1)  returns 0x20000438 (0000ms, 0273ms total)
                JLINK_GetDeviceFamily()  returns 3 (0000ms, 0273ms total)
                JLINK_WriteReg(XPSR, 0x01000000)  returns 0x00 (0000ms, 0273ms total)
                JLINK_WriteReg(R13, 0x20000418)  returns 0x00 (0000ms, 0273ms total)
                JLINK_WriteReg(R15, 0x2000000E)  returns 0x00 (0000ms, 0273ms total)
                JLINK_GoIntDis() (0004ms, 0273ms total)
                JLINK_IsHalted()  returns TRUE (0011ms, 0277ms total)
                JLINK_ReadReg(R15)  returns 0x20000000 (0000ms, 0288ms total)
                JLINK_WA_Restore() -- CPU_WriteMem(8192 bytes @ 0x20000000)  returns 0x00 (0049ms, 0288ms total)
                JLINK_WriteReg(XPSR, 0x01000000)  returns 0x00 (0000ms, 0337ms total)
                JLINK_WriteReg(CFBP, 0x00000000)  returns 0x00 (0000ms, 0337ms total)
                JLINK_WriteReg(R0, 0x080056D0)  returns 0x00 (0000ms, 0337ms total)
                JLINK_WriteReg(R1, 0x00000080)  returns 0x00 (0000ms, 0337ms total)
                JLINK_WriteReg(R2, 0x40013800)  returns 0x00 (0000ms, 0337ms total)
                JLINK_WriteReg(R3, 0x00000001)  returns 0x00 (0000ms, 0337ms total)
                JLINK_WriteReg(R4, 0xFFFFFFFF)  returns 0x00 (0000ms, 0337ms total)
                JLINK_WriteReg(R5, 0x080056D0)  returns 0x00 (0000ms, 0337ms total)
                JLINK_WriteReg(R6, 0x00000000)  returns 0x00 (0001ms, 0337ms total)
                JLINK_WriteReg(R7, 0x00000000)  returns 0x00 (0000ms, 0338ms total)
                JLINK_WriteReg(R8, 0x00000000)  returns 0x00 (0000ms, 0338ms total)
                JLINK_WriteReg(R9, 0x20000160)  returns 0x00 (0000ms, 0338ms total)
                JLINK_WriteReg(R10, 0x00000000)  returns 0x00 (0000ms, 0338ms total)
                JLINK_WriteReg(R11, 0x00000000)  returns 0x00 (0000ms, 0338ms total)
                JLINK_WriteReg(R12, 0x00000080)  returns 0x00 (0000ms, 0338ms total)
                JLINK_WriteReg(R14, 0xFFFFFFFF)  returns 0x00 (0000ms, 0338ms total)
                JLINK_WriteReg(R15, 0x08000100)  returns 0x00 (0000ms, 0338ms total)
                JLINK_WriteReg(MSP, 0x20000490)  returns 0x00 (0001ms, 0338ms total)
                JLINK_WriteReg(PSP, 0x00000000)  returns 0x00 (0000ms, 0339ms total)
               -- CPU_WriteMem(4 bytes @ 0xE0002000) -- CPU_WriteMem(4 bytes @ 0xE0002008) -- CPU_WriteMem(4 bytes @ 0xE000200C) -- CPU_WriteMem(4 bytes @ 0xE0002010) -- CPU_WriteMem(4 bytes @ 0xE0002014) -- CPU_WriteMem(4 bytes @ 0xE0002018) -- CPU_WriteMem(4 bytes @ 0xE000201C) (0374ms, 1621ms total)
T1F3C 009:481 JLINK_IsHalted()  returns TRUE (0011ms, 1996ms total)
T1F3C 009:493 JLINK_Halt()  returns 0x00 (0000ms, 1996ms total)
T1F3C 009:493 JLINK_IsHalted()  returns TRUE (0000ms, 1996ms total)
T1F3C 009:493 JLINK_IsHalted()  returns TRUE (0000ms, 1996ms total)
T1F3C 009:493 JLINK_IsHalted()  returns TRUE (0000ms, 1996ms total)
T1F3C 009:493 JLINK_ReadReg(R15)  returns 0x08000330 (0000ms, 1996ms total)
T1F3C 009:493 JLINK_ReadReg(XPSR)  returns 0x61000000 (0000ms, 1996ms total)
T1F3C 009:493 JLINK_ClrBPEx(BPHandle = 0x00000001)  returns 0x00 (0000ms, 1996ms total)
T1F3C 009:494 JLINK_ClrBPEx(BPHandle = 0x00000002)  returns 0x00 (0000ms, 1997ms total)
T1F3C 009:494 JLINK_ClrBPEx(BPHandle = 0x00000003)  returns 0x00 (0000ms, 1997ms total)
T1F3C 009:494 JLINK_ClrBPEx(BPHandle = 0x00000004)  returns 0x00 (0000ms, 1997ms total)
T1F3C 009:494 JLINK_ClrBPEx(BPHandle = 0x00000005)  returns 0x00 (0000ms, 1997ms total)
T1F3C 009:494 JLINK_ClrBPEx(BPHandle = 0x00000006)  returns 0x00 (0000ms, 1997ms total)
T1F3C 009:494 JLINK_ClrBPEx(BPHandle = 0x00000007)  returns 0x00 (0000ms, 1997ms total)
T1F3C 009:494 JLINK_ClrBPEx(BPHandle = 0x00000008)  returns 0x00 (0000ms, 1997ms total)
T1F3C 009:494 JLINK_ReadMemU32(0xE000ED30, 0x0001 Items, ...) -- CPU_ReadMem(4 bytes @ 0xE000ED30) -- Data:  03 00 00 00  returns 0x01 (0003ms, 1997ms total)
T1F3C 009:497 JLINK_ReadMemU32(0xE0001028, 0x0001 Items, ...) -- CPU_ReadMem(4 bytes @ 0xE0001028) -- Data:  00 00 00 00  returns 0x01 (0002ms, 2000ms total)
T1F3C 009:499 JLINK_ReadMemU32(0xE0001038, 0x0001 Items, ...) -- CPU_ReadMem(4 bytes @ 0xE0001038) -- Data:  00 02 00 00  returns 0x01 (0001ms, 2002ms total)
T1F3C 009:500 JLINK_ReadMemU32(0xE0001048, 0x0001 Items, ...) -- CPU_ReadMem(4 bytes @ 0xE0001048) -- Data:  00 00 00 00  returns 0x01 (0002ms, 2003ms total)
T1F3C 009:503 JLINK_ReadMemU32(0xE0001058, 0x0001 Items, ...) -- CPU_ReadMem(4 bytes @ 0xE0001058) -- Data:  00 00 00 00  returns 0x01 (0001ms, 2006ms total)
T1F3C 009:505 JLINK_ReadReg(R0)  returns 0x0000CEDD (0000ms, 2007ms total)
T1F3C 009:505 JLINK_ReadReg(R1)  returns 0x00000000 (0000ms, 2007ms total)
T1F3C 009:505 JLINK_ReadReg(R2)  returns 0x000E0003 (0000ms, 2007ms total)
T1F3C 009:505 JLINK_ReadReg(R3)  returns 0x00000001 (0000ms, 2007ms total)
T1F3C 009:505 JLINK_ReadReg(R4)  returns 0x20000444 (0000ms, 2007ms total)
T1F3C 009:505 JLINK_ReadReg(R5)  returns 0x080056D0 (0000ms, 2007ms total)
T1F3C 009:505 JLINK_ReadReg(R6)  returns 0x0000CEDD (0001ms, 2007ms total)
T1F3C 009:506 JLINK_ReadReg(R7)  returns 0x00000000 (0000ms, 2008ms total)
T1F3C 009:506 JLINK_ReadReg(R8)  returns 0x00000000 (0000ms, 2008ms total)
T1F3C 009:506 JLINK_ReadReg(R9)  returns 0x20000160 (0000ms, 2008ms total)
T1F3C 009:506 JLINK_ReadReg(R10)  returns 0x00000000 (0000ms, 2008ms total)
T1F3C 009:506 JLINK_ReadReg(R11)  returns 0x00000000 (0000ms, 2008ms total)
T1F3C 009:506 JLINK_ReadReg(R12)  returns 0x00000002 (0000ms, 2008ms total)
T1F3C 009:506 JLINK_ReadReg(R14)  returns 0x080002C5 (0000ms, 2008ms total)
T1F3C 009:507 JLINK_ReadReg(R15)  returns 0x08000330 (0000ms, 2009ms total)
T1F3C 009:507 JLINK_ReadReg(XPSR)  returns 0x61000000 (0000ms, 2009ms total)
T1F3C 009:507 JLINK_ReadReg(CFBP)  returns 0x00000000 (0000ms, 2009ms total)
T1F3C 009:507 JLINK_ReadReg(MSP)  returns 0x200003C0 (0000ms, 2009ms total)
T1F3C 009:507 JLINK_ReadMem (0x20000484, 0x0004 Bytes, ...) -- CPU_ReadMem(64 bytes @ 0x20000480) -- Updating C cache (64 bytes @ 0x20000480) -- Read from C cache (4 bytes @ 0x20000484) -- Data:  3B 08 00 08  returns 0x00 (0003ms, 2009ms total)
T1F44 009:510 JLINK_ReadMem (0x20000474, 0x0004 Bytes, ...) -- CPU_ReadMem(64 bytes @ 0x20000440) -- Updating C cache (64 bytes @ 0x20000440) -- Read from C cache (4 bytes @ 0x20000474) -- Data:  D0 56 00 08  returns 0x00 (0003ms, 2012ms total)
T1F44 009:513 JLINK_ReadMem (0x20000478, 0x0004 Bytes, ...) -- Read from C cache (4 bytes @ 0x20000478) -- Data:  D0 56 00 08  returns 0x00 (0000ms, 2015ms total)
T1F44 009:513 JLINK_ReadMem (0x2000047C, 0x0004 Bytes, ...) -- Read from C cache (4 bytes @ 0x2000047C) -- Data:  00 00 00 00  returns 0x00 (0000ms, 2015ms total)
T1F44 009:513 JLINK_ReadMem (0x20000480, 0x0004 Bytes, ...) -- Read from C cache (4 bytes @ 0x20000480) -- Data:  00 00 00 00  returns 0x00 (0000ms, 2015ms total)
T1F44 009:514 JLINK_ReadMem (0x2000048C, 0x0004 Bytes, ...) -- Read from C cache (4 bytes @ 0x2000048C) -- Data:  51 4E 00 08  returns 0x00 (0000ms, 2015ms total)
T1F44 009:514 JLINK_WriteReg(R0, 0x0000CEDD)  returns 0x00 (0000ms, 2015ms total)
T1F44 009:514 JLINK_WriteReg(R1, 0x00000000)  returns 0x00 (0000ms, 2015ms total)
T1F44 009:514 JLINK_WriteReg(R2, 0x000E0003)  returns 0x00 (0001ms, 2015ms total)
T1F44 009:515 JLINK_WriteReg(R3, 0x00000001)  returns 0x00 (0000ms, 2016ms total)
T1F44 009:515 JLINK_WriteReg(R4, 0x20000444)  returns 0x00 (0000ms, 2016ms total)
T1F44 009:515 JLINK_WriteReg(R5, 0x080056D0)  returns 0x00 (0000ms, 2016ms total)
T1F44 009:515 JLINK_WriteReg(R6, 0x0000CEDD)  returns 0x00 (0000ms, 2016ms total)
T1F44 009:515 JLINK_WriteReg(R7, 0x00000000)  returns 0x00 (0000ms, 2016ms total)
T1F44 009:515 JLINK_WriteReg(R8, 0x00000000)  returns 0x00 (0000ms, 2016ms total)
T1F44 009:516 JLINK_WriteReg(R9, 0x20000160)  returns 0x00 (0000ms, 2017ms total)
T1F44 009:516 JLINK_WriteReg(R10, 0x00000000)  returns 0x00 (0000ms, 2017ms total)
T1F44 009:516 JLINK_WriteReg(R11, 0x00000000)  returns 0x00 (0000ms, 2017ms total)
T1F44 009:516 JLINK_WriteReg(R12, 0x00000002)  returns 0x00 (0000ms, 2017ms total)
T1F44 009:516 JLINK_WriteReg(R13, 0x200003C0)  returns 0x00 (0000ms, 2017ms total)
T1F44 009:516 JLINK_WriteReg(R14, 0x080002C5)  returns 0x00 (0000ms, 2017ms total)
T1F44 009:516 JLINK_WriteReg(R15, 0x08000330)  returns 0x00 (0000ms, 2017ms total)
T1F44 009:517 JLINK_WriteReg(XPSR, 0x61000000)  returns 0x00 (0000ms, 2018ms total)
T1F44 009:517 JLINK_WriteReg(MSP, 0x200003C0)  returns 0x00 (0000ms, 2018ms total)
T1F44 009:517 JLINK_WriteReg(PSP, 0x00000000)  returns 0x00 (0000ms, 2018ms total)
T1F44 009:517 JLINK_WriteReg(CFBP, 0x00000000)  returns 0x00 (0000ms, 2018ms total)
T1F44 009:517 JLINK_ReadReg(R0)  returns 0x0000CEDD (0000ms, 2018ms total)
T1F44 009:517 JLINK_ReadReg(R1)  returns 0x00000000 (0000ms, 2018ms total)
T1F44 009:517 JLINK_ReadReg(R2)  returns 0x000E0003 (0001ms, 2018ms total)
T1F44 009:518 JLINK_ReadReg(R3)  returns 0x00000001 (0000ms, 2019ms total)
T1F44 009:518 JLINK_ReadReg(R4)  returns 0x20000444 (0000ms, 2019ms total)
T1F44 009:518 JLINK_ReadReg(R5)  returns 0x080056D0 (0000ms, 2019ms total)
T1F44 009:518 JLINK_ReadReg(R6)  returns 0x0000CEDD (0000ms, 2019ms total)
T1F44 009:518 JLINK_ReadReg(R7)  returns 0x00000000 (0000ms, 2019ms total)
T1F44 009:518 JLINK_ReadReg(R8)  returns 0x00000000 (0000ms, 2019ms total)
T1F44 009:518 JLINK_ReadReg(R9)  returns 0x20000160 (0000ms, 2019ms total)
T1F44 009:518 JLINK_ReadReg(R10)  returns 0x00000000 (0001ms, 2019ms total)
T1F44 009:519 JLINK_ReadReg(R11)  returns 0x00000000 (0000ms, 2020ms total)
T1F44 009:519 JLINK_ReadReg(R12)  returns 0x00000002 (0000ms, 2020ms total)
T1F44 009:519 JLINK_ReadReg(R14)  returns 0x080002C5 (0000ms, 2020ms total)
T1F44 009:519 JLINK_ReadReg(R15)  returns 0x08000330 (0000ms, 2020ms total)
T1F44 009:519 JLINK_ReadReg(XPSR)  returns 0x61000000 (0000ms, 2020ms total)
T1F44 009:519 JLINK_ReadReg(CFBP)  returns 0x00000000 (0000ms, 2020ms total)
T1F44 009:519 JLINK_ReadReg(MSP)  returns 0x200003C0 (0000ms, 2020ms total)
T1F44 009:520 JLINK_ReadMemU32(0xE0001004, 0x0001 Items, ...) -- CPU_ReadMem(4 bytes @ 0xE0001004) -- Data:  23 40 12 00  returns 0x01 (0002ms, 2021ms total)
T1F44 009:657 JLINK_ReadMem (0x08000330, 0x003C Bytes, ...) -- Read from flash cache (60 bytes @ 0x08000330) -- Merging zombie BP[1]: 0xA818 @ 0x08000330 -- Data:  18 A8 FF F7 17 FF A0 A0 04 F0 AE FD 0C 21 18 A8 ...  returns 0x00 (0001ms, 2023ms total)
T1F3C 012:262 JLINK_Step() -- Merging zombie BP[1]: 0xA818 @ 0x08000330 -- Merging zombie BP[1]: 0xA818 @ 0x08000330 -- Not simulated -- Read from flash cache (1024 bytes @ 0x08000000)  -- Programming range 0x08000000 - 0x080003FF (1 Sector, 1024 Bytes)
                JLINK_GetDeviceFamily()  returns 3 (0000ms, 0000ms total)
                JLINK_ReadReg(XPSR)  returns 0x61000000 (0000ms, 0000ms total)
                JLINK_ReadReg(CFBP)  returns 0x00000000 (0000ms, 0000ms total)
                JLINK_ReadReg(R0)  returns 0x0000CEDD (0000ms, 0000ms total)
                JLINK_ReadReg(R1)  returns 0x00000000 (0000ms, 0001ms total)
                JLINK_ReadReg(R2)  returns 0x000E0003 (0000ms, 0001ms total)
                JLINK_ReadReg(R3)  returns 0x00000001 (0000ms, 0001ms total)
                JLINK_ReadReg(R4)  returns 0x20000444 (0000ms, 0001ms total)
                JLINK_ReadReg(R5)  returns 0x080056D0 (0000ms, 0001ms total)
                JLINK_ReadReg(R6)  returns 0x0000CEDD (0000ms, 0001ms total)
                JLINK_ReadReg(R7)  returns 0x00000000 (0000ms, 0001ms total)
                JLINK_ReadReg(R8)  returns 0x00000000 (0000ms, 0001ms total)
                JLINK_ReadReg(R9)  returns 0x20000160 (0000ms, 0001ms total)
                JLINK_ReadReg(R10)  returns 0x00000000 (0001ms, 0001ms total)
                JLINK_ReadReg(R11)  returns 0x00000000 (0000ms, 0002ms total)
                JLINK_ReadReg(R12)  returns 0x00000002 (0000ms, 0002ms total)
                JLINK_ReadReg(R14)  returns 0x080002C5 (0000ms, 0002ms total)
                JLINK_ReadReg(R15)  returns 0x08000330 (0000ms, 0002ms total)
                JLINK_ReadReg(MSP)  returns 0x200003C0 (0000ms, 0002ms total)
                JLINK_ReadReg(PSP)  returns 0x00000000 (0000ms, 0002ms total)
                JLINK_WA_AddRange(Addr = 0x20000000, NumBytes = 0x2000) -- CPU_ReadMem(8192 bytes @ 0x20000000)  returns 0x00 (0050ms, 0002ms total)
                JLINK_WriteMemEx(0x20000000, 0x0358 Bytes, ..., AccessWidth = 0) -- Data:  00 BE FE E7 69 E0 83 E0 52 E0 29 E0 84 E0 88 E0 ... -- CPU_WriteMem(856 bytes @ 0x20000000)  returns 0x358 (0016ms, 0052ms total)
                JLINK_ReadMemEx(0x20000000, 0x0358 Bytes, ..., AccessWidth = 0) -- CPU_ReadMem(856 bytes @ 0x20000000) -- Data:  00 BE FE E7 69 E0 83 E0 52 E0 29 E0 84 E0 88 E0 ...  returns 0x358 (0008ms, 0068ms total)
                JLINK_WriteReg(XPSR, 0x01000000)  returns 0x00 (0000ms, 0076ms total)
                JLINK_WriteReg(R13, 0x20000418)  returns 0x00 (0000ms, 0076ms total)
                JLINK_WriteReg(R15, 0x2000000C)  returns 0x00 (0000ms, 0076ms total)
                JLINK_GoIntDis() (0002ms, 0076ms total)
                JLINK_IsHalted()  returns TRUE (0010ms, 0078ms total)
                JLINK_ReadReg(R15)  returns 0x20000000 (0001ms, 0088ms total)
                JLINK_WriteReg(R0, 0x00000001)  returns 0x00 (0000ms, 0089ms total)
                JLINK_WriteReg(R1, 0x08000000)  returns 0x00 (0000ms, 0089ms total)
                JLINK_WriteReg(R2, 0x08000000)  returns 0x00 (0000ms, 0089ms total)
                JLINK_WriteReg(R3, 0x00000000)  returns 0x00 (0000ms, 0089ms total)
                JLINK_WriteReg(XPSR, 0x01000000)  returns 0x00 (0000ms, 0089ms total)
